time	V(n002)	V(n003)
0.000000000000000e+00	0.000000e+00	0.000000e+00
9.999999717180685e-10	1.592782e-12	3.009217e-14
1.999999943436137e-09	3.187400e-12	7.920661e-14
1.036449038722702e-06	1.638986e-09	1.570348e-09
2.070898077501967e-06	3.386824e-09	3.267097e-09
3.105347116281233e-06	5.246701e-09	5.090326e-09
4.139796155060499e-06	7.218618e-09	7.040035e-09
5.174245193839765e-06	9.302575e-09	9.116224e-09
6.208694232619030e-06	1.149857e-08	1.131889e-08
7.243143271398294e-06	1.380661e-08	1.364804e-08
1.036618208008852e-05	2.280558e-08	2.257148e-08
1.304281596308792e-05	3.463378e-08	3.425915e-08
1.535950948187977e-05	5.153423e-08	5.091313e-08
1.747231084825248e-05	7.770824e-08	7.665944e-08
1.947743463301141e-05	1.202882e-07	1.184983e-07
2.142081339225093e-05	1.924620e-07	1.893709e-07
2.346584995841354e-05	3.248268e-07	3.193009e-07
2.536965160221562e-05	5.414132e-07	5.318537e-07
2.731168984616042e-05	9.265409e-07	9.097562e-07
2.916864916825870e-05	1.566749e-06	1.537902e-06
3.105092044162448e-05	2.687532e-06	2.637516e-06
3.288708750525158e-05	4.572598e-06	4.486930e-06
3.474165583378339e-05	7.843796e-06	7.696229e-06
3.657148959500468e-05	1.338536e-05	1.313295e-05
3.841463867998912e-05	2.295079e-05	2.251754e-05
4.024525846223628e-05	3.922355e-05	3.848321e-05
4.208673660994213e-05	6.721831e-05	6.595136e-05
4.392465975460894e-05	1.149490e-04	1.127892e-04
4.577577617372973e-05	1.968714e-04	1.931935e-04
4.763558481618600e-05	3.366811e-04	3.304534e-04
4.952184559960932e-05	5.762207e-04	5.657368e-04
5.144444503536371e-05	9.853669e-04	9.679122e-04
5.343590075539097e-05	1.687232e-03	1.658576e-03
5.553826806701820e-05	2.895942e-03	2.849777e-03
5.783284095929101e-05	5.008200e-03	4.935411e-03
6.044153202756413e-05	8.780270e-03	8.668312e-03
6.362158415545776e-05	1.588039e-02	1.571172e-02
6.783693857388097e-05	2.984991e-02	2.960060e-02
7.286239164227347e-05	5.339967e-02	5.305855e-02
7.908715771496497e-05	9.286388e-02	9.242825e-02
8.804932334960323e-05	1.655912e-01	1.650608e-01
9.953087474842818e-05	2.780059e-01	2.774091e-01
1.131021496298659e-04	4.300877e-01	4.294641e-01
1.311090504998280e-04	6.500960e-01	6.494741e-01
1.535800530750106e-04	9.379984e-01	9.373861e-01
1.751747253614651e-04	1.221169e+00	1.220529e+00
2.082974876698160e-04	1.659485e+00	1.658560e+00
2.513986123776265e-04	2.230705e+00	2.225730e+00
3.372044991275212e-04	3.367010e+00	3.339135e+00
3.534070475834103e-04	3.581193e+00	3.537866e+00
3.858121444951883e-04	4.008503e+00	3.877294e+00
4.506223383187444e-04	4.861423e+00	4.418877e+00
4.665415575437359e-04	5.070397e+00	4.498341e+00
4.983799959937190e-04	5.487003e+00	4.556776e+00
5.620568728936853e-04	6.317308e+00	4.609359e+00
7.627662774033997e-04	8.898521e+00	4.664988e+00
9.580787774033997e-04	1.135775e+01	4.690666e+00
1.153391277403400e-03	1.375499e+01	4.707863e+00
1.348703777403400e-03	1.607333e+01	4.720492e+00
1.544016277403400e-03	1.830020e+01	4.730421e+00
1.739328777403400e-03	2.042355e+01	4.738550e+00
1.934641277403399e-03	2.243189e+01	4.745417e+00
2.129953777403399e-03	2.431437e+01	4.751289e+00
2.325266277403400e-03	2.606079e+01	4.756339e+00
2.520578777403400e-03	2.766175e+01	4.760686e+00
2.715891277403400e-03	2.910861e+01	4.764415e+00
2.911203777403400e-03	3.039358e+01	4.767587e+00
3.106516277403400e-03	3.150978e+01	4.770246e+00
3.301828777403400e-03	3.245125e+01	4.772425e+00
3.497141277403401e-03	3.321303e+01	4.774148e+00
3.692453777403401e-03	3.379116e+01	4.775434e+00
3.887766277403401e-03	3.418277e+01	4.776295e+00
4.083078777403401e-03	3.438613e+01	4.776738e+00
4.278391277403401e-03	3.440076e+01	4.776770e+00
4.473703777403401e-03	3.422784e+01	4.776393e+00
4.669016277403401e-03	3.387107e+01	4.775610e+00
4.864328777403401e-03	3.334946e+01	4.774454e+00
5.010569273242831e-03	3.286470e+01	4.773370e+00
5.082090124794241e-03	3.259784e+01	4.772767e+00
5.141934581620836e-03	3.236239e+01	4.772231e+00
5.207974476307576e-03	3.209821e+01	4.771626e+00
5.228484360086542e-03	3.201578e+01	4.771436e+00
5.246074467868012e-03	3.194506e+01	4.771273e+00
5.264412173632135e-03	3.187144e+01	4.771102e+00
5.282350538817701e-03	3.179954e+01	4.770936e+00
5.301571842350469e-03	3.172267e+01	4.770757e+00
5.319494033661868e-03	3.165115e+01	4.770591e+00
5.338255386100223e-03	3.157647e+01	4.770417e+00
5.358060119794340e-03	3.149784e+01	4.770233e+00
5.379982388976153e-03	3.141105e+01	4.770030e+00
5.404846674801408e-03	3.131294e+01	4.769799e+00
5.434254025868853e-03	3.119735e+01	4.769527e+00
5.470442189280299e-03	3.105581e+01	4.769192e+00
5.524551090974012e-03	3.084582e+01	4.768693e+00
5.632768894361438e-03	3.043146e+01	4.767696e+00
5.828081394361438e-03	2.969763e+01	4.765903e+00
6.023393894361438e-03	2.898106e+01	4.764118e+00
6.218706394361439e-03	2.828348e+01	4.762341e+00
6.414018894361439e-03	2.760438e+01	4.760573e+00
6.609331394361439e-03	2.694328e+01	4.758811e+00
6.804643894361439e-03	2.629969e+01	4.757057e+00
6.999956394361439e-03	2.567316e+01	4.755309e+00
7.195268894361439e-03	2.506323e+01	4.753568e+00
7.390581394361440e-03	2.446946e+01	4.751832e+00
7.585893894361440e-03	2.389141e+01	4.750101e+00
7.781206394361440e-03	2.332868e+01	4.748374e+00
7.976518894361439e-03	2.278086e+01	4.746653e+00
8.171831394361439e-03	2.224755e+01	4.744935e+00
8.367143894361438e-03	2.172837e+01	4.743220e+00
8.562456394361437e-03	2.122293e+01	4.741508e+00
8.757768894361436e-03	2.073089e+01	4.739799e+00
8.953081394361436e-03	2.025188e+01	4.738093e+00
9.148393894361435e-03	1.978555e+01	4.736387e+00
9.343706394361434e-03	1.933157e+01	4.734684e+00
9.539018894361434e-03	1.888961e+01	4.732980e+00
9.734331394361433e-03	1.845936e+01	4.731277e+00
9.929643894361432e-03	1.804049e+01	4.729574e+00
1.012495639436143e-02	1.763272e+01	4.727870e+00
1.032026889436143e-02	1.723574e+01	4.726165e+00
1.051558139436143e-02	1.684928e+01	4.724458e+00
1.071089389436143e-02	1.647304e+01	4.722749e+00
1.090620639436143e-02	1.610676e+01	4.721038e+00
1.110151889436143e-02	1.575017e+01	4.719323e+00
1.129683139436143e-02	1.540302e+01	4.717605e+00
1.149214389436143e-02	1.506506e+01	4.715882e+00
1.168745639436143e-02	1.473604e+01	4.714154e+00
1.188276889436143e-02	1.441573e+01	4.712421e+00
1.207808139436142e-02	1.410389e+01	4.710682e+00
1.227339389436142e-02	1.380029e+01	4.708936e+00
1.246870639436142e-02	1.350473e+01	4.707183e+00
1.266401889436142e-02	1.321699e+01	4.705421e+00
1.285933139436142e-02	1.293685e+01	4.703651e+00
1.305464389436142e-02	1.266413e+01	4.701872e+00
1.324995639436142e-02	1.239861e+01	4.700083e+00
1.344526889436142e-02	1.214011e+01	4.698283e+00
1.364058139436142e-02	1.188844e+01	4.696470e+00
1.383589389436142e-02	1.164343e+01	4.694646e+00
1.403120639436142e-02	1.140489e+01	4.692807e+00
1.422651889436142e-02	1.117265e+01	4.690954e+00
1.442183139436142e-02	1.094655e+01	4.689086e+00
1.461714389436142e-02	1.072642e+01	4.687201e+00
1.481245639436141e-02	1.051210e+01	4.685298e+00
1.500776889436141e-02	1.030344e+01	4.683376e+00
1.520308139436141e-02	1.010029e+01	4.681434e+00
1.539839389436141e-02	9.902498e+00	4.679471e+00
1.559370639436141e-02	9.709928e+00	4.677485e+00
1.578901889436141e-02	9.522437e+00	4.675473e+00
1.598433139436141e-02	9.339891e+00	4.673436e+00
1.617964389436141e-02	9.162160e+00	4.671371e+00
1.637495639436141e-02	8.989113e+00	4.669276e+00
1.657026889436141e-02	8.820627e+00	4.667150e+00
1.676558139436141e-02	8.656580e+00	4.664989e+00
1.696089389436141e-02	8.496853e+00	4.662791e+00
1.715620639436141e-02	8.340700e+00	4.660561e+00
1.723044583467183e-02	8.282380e+00	4.659703e+00
1.727775780179266e-02	8.245649e+00	4.659152e+00
1.730444027708509e-02	8.225051e+00	4.658840e+00
1.731947696205292e-02	8.213486e+00	4.658664e+00
1.732497422017775e-02	8.209271e+00	4.658599e+00
1.732790604302094e-02	8.207035e+00	4.658566e+00
1.732994782149958e-02	8.205489e+00	4.658542e+00
1.733184560428294e-02	8.204069e+00	4.658520e+00
1.733387788169294e-02	8.202579e+00	4.658497e+00
1.733575928165634e-02	8.201248e+00	4.658477e+00
1.733769781854107e-02	8.199964e+00	4.658457e+00
1.733965860782666e-02	8.198815e+00	4.658440e+00
1.734173074828091e-02	8.197879e+00	4.658425e+00
1.734401776633393e-02	8.197393e+00	4.658418e+00
1.734678748023346e-02	8.198116e+00	4.658429e+00
1.735096250482869e-02	8.202414e+00	4.658494e+00
1.735518665590844e-02	8.211520e+00	4.658634e+00
1.736013267417161e-02	8.229209e+00	4.658903e+00
1.736563756550204e-02	8.257926e+00	4.659337e+00
1.737364908354202e-02	8.314914e+00	4.660182e+00
1.738687268701098e-02	8.433544e+00	4.661898e+00
1.740158505381408e-02	8.588587e+00	4.664059e+00
1.741877892290105e-02	8.788774e+00	4.666721e+00
1.743724977483372e-02	9.015115e+00	4.669561e+00
1.746437028831601e-02	9.355350e+00	4.673561e+00
1.749068593996637e-02	9.687840e+00	4.677158e+00
1.772948245135381e-02	1.265871e+01	4.701221e+00
1.792479495135381e-02	1.500883e+01	4.715094e+00
1.812010745135380e-02	1.727965e+01	4.726095e+00
1.831541995135380e-02	1.945247e+01	4.734957e+00
1.851073245135380e-02	2.151554e+01	4.742368e+00
1.870604495135380e-02	2.345769e+01	4.748677e+00
1.890135745135380e-02	2.526843e+01	4.754091e+00
1.909666995135380e-02	2.693797e+01	4.758752e+00
1.929198245135380e-02	2.845731e+01	4.762758e+00
1.948729495135380e-02	2.981827e+01	4.766182e+00
1.968260745135380e-02	3.101353e+01	4.769074e+00
1.987791995135380e-02	3.203671e+01	4.771472e+00
2.007323245135380e-02	3.288238e+01	4.773405e+00
2.026854495135380e-02	3.354610e+01	4.774892e+00
2.046385745135380e-02	3.402450e+01	4.775948e+00
2.065916995135380e-02	3.431529e+01	4.776584e+00
2.085448245135380e-02	3.441742e+01	4.776806e+00
2.104979495135379e-02	3.433118e+01	4.776618e+00
2.124510745135379e-02	3.405891e+01	4.776023e+00
2.144041995135379e-02	3.360699e+01	4.775026e+00
2.163573245135379e-02	3.300824e+01	4.773692e+00
2.172912704645598e-02	3.267167e+01	4.772933e+00
2.182197736350676e-02	3.230880e+01	4.772107e+00
2.191382009783244e-02	3.194190e+01	4.771264e+00
2.196611092848700e-02	3.173253e+01	4.770780e+00
2.201489962143773e-02	3.153821e+01	4.770327e+00
2.206773062037238e-02	3.132948e+01	4.769837e+00
2.215767230132388e-02	3.097858e+01	4.769006e+00
2.233755566322690e-02	3.028912e+01	4.767348e+00
2.253286816322689e-02	2.955726e+01	4.765556e+00
2.272818066322689e-02	2.884441e+01	4.763773e+00
2.292349316322689e-02	2.815045e+01	4.761998e+00
2.311880566322689e-02	2.747488e+01	4.760231e+00
2.331411816322689e-02	2.681721e+01	4.758471e+00
2.350943066322689e-02	2.617696e+01	4.756718e+00
2.370474316322689e-02	2.555368e+01	4.754972e+00
2.390005566322689e-02	2.494691e+01	4.753231e+00
2.409536816322689e-02	2.435622e+01	4.751496e+00
2.429068066322689e-02	2.378118e+01	4.749765e+00
2.448599316322689e-02	2.322137e+01	4.748040e+00
2.468130566322689e-02	2.267639e+01	4.746319e+00
2.487661816322689e-02	2.214585e+01	4.744602e+00
2.507193066322689e-02	2.162936e+01	4.742888e+00
2.526724316322689e-02	2.112655e+01	4.741178e+00
2.546255566322688e-02	2.063705e+01	4.739469e+00
2.565786816322688e-02	2.016053e+01	4.737762e+00
2.585318066322688e-02	1.969662e+01	4.736057e+00
2.604849316322688e-02	1.924499e+01	4.734354e+00
2.624380566322688e-02	1.880533e+01	4.732650e+00
2.643911816322688e-02	1.837731e+01	4.730947e+00
2.663443066322688e-02	1.796062e+01	4.729244e+00
2.682974316322688e-02	1.755496e+01	4.727540e+00
2.702505566322688e-02	1.716004e+01	4.725834e+00
2.722036816322688e-02	1.677558e+01	4.724127e+00
2.741568066322688e-02	1.640129e+01	4.722418e+00
2.761099316322688e-02	1.603691e+01	4.720706e+00
2.780630566322688e-02	1.568217e+01	4.718990e+00
2.800161816322688e-02	1.533682e+01	4.717271e+00
2.819693066322687e-02	1.500061e+01	4.715547e+00
2.839224316322687e-02	1.467330e+01	4.713819e+00
2.858755566322687e-02	1.435464e+01	4.712085e+00
2.878286816322687e-02	1.404442e+01	4.710344e+00
2.897818066322687e-02	1.374240e+01	4.708597e+00
2.917349316322687e-02	1.344837e+01	4.706842e+00
2.936880566322687e-02	1.316211e+01	4.705080e+00
2.956411816322687e-02	1.288343e+01	4.703308e+00
2.975943066322687e-02	1.261211e+01	4.701527e+00
2.995474316322687e-02	1.234797e+01	4.699735e+00
3.015005566322687e-02	1.209081e+01	4.697932e+00
3.034536816322687e-02	1.184045e+01	4.696118e+00
3.054068066322687e-02	1.159670e+01	4.694290e+00
3.073599316322687e-02	1.135940e+01	4.692450e+00
3.093130566322687e-02	1.112836e+01	4.690593e+00
3.112661816322686e-02	1.090343e+01	4.688722e+00
3.132193066322687e-02	1.068443e+01	4.686833e+00
3.151724316322687e-02	1.047122e+01	4.684927e+00
3.171255566322687e-02	1.026364e+01	4.683002e+00
3.190786816322688e-02	1.006154e+01	4.681055e+00
3.210318066322688e-02	9.864777e+00	4.679088e+00
3.229849316322688e-02	9.673201e+00	4.677096e+00
3.249380566322688e-02	9.486679e+00	4.675080e+00
3.268911816322689e-02	9.305078e+00	4.673038e+00
3.288443066322689e-02	9.128263e+00	4.670967e+00
3.307974316322689e-02	8.956110e+00	4.668867e+00
3.327505566322689e-02	8.788493e+00	4.666733e+00
3.347036816322690e-02	8.625292e+00	4.664566e+00
3.366568066322690e-02	8.466390e+00	4.662361e+00
3.386099316322690e-02	8.311054e+00	4.660123e+00
3.393752139487076e-02	8.251260e+00	4.659235e+00
3.398535460350699e-02	8.214532e+00	4.658679e+00
3.400236186093863e-02	8.202332e+00	4.658494e+00
3.400902801907990e-02	8.198849e+00	4.658440e+00
3.401256643188177e-02	8.198621e+00	4.658436e+00
3.401609341200173e-02	8.201171e+00	4.658475e+00
3.402084917061550e-02	8.209826e+00	4.658608e+00
3.402583883097514e-02	8.225765e+00	4.658851e+00
3.403100422163416e-02	8.250721e+00	4.659228e+00
3.403826789001762e-02	8.299190e+00	4.659951e+00
3.404986265506339e-02	8.398539e+00	4.661397e+00
3.406544093061980e-02	8.558116e+00	4.663639e+00
3.408258433371214e-02	8.754582e+00	4.666276e+00
3.410083458523918e-02	8.976884e+00	4.669091e+00
3.412707910589320e-02	9.305388e+00	4.672997e+00
3.415122051793040e-02	9.610280e+00	4.676345e+00
3.425772662357346e-02	1.095041e+01	4.688818e+00
3.437417318671081e-02	1.238938e+01	4.699402e+00
3.456948568671082e-02	1.474773e+01	4.713685e+00
3.476479818671082e-02	1.702881e+01	4.724987e+00
3.496011068671082e-02	1.921326e+01	4.734042e+00
3.515542318671083e-02	2.128925e+01	4.741593e+00
3.535073568671083e-02	2.324554e+01	4.748015e+00
3.554604818671083e-02	2.507156e+01	4.753522e+00
3.574136068671083e-02	2.675746e+01	4.758261e+00
3.593667318671084e-02	2.829412e+01	4.762338e+00
3.613198568671084e-02	2.967328e+01	4.765824e+00
3.632729818671084e-02	3.088752e+01	4.768774e+00
3.652261068671084e-02	3.193036e+01	4.771226e+00
3.671792318671085e-02	3.279624e+01	4.773210e+00
3.691323568671085e-02	3.348062e+01	4.774746e+00
3.710854818671085e-02	3.398000e+01	4.775850e+00
3.730386068671086e-02	3.429198e+01	4.776533e+00
3.749917318671086e-02	3.441535e+01	4.776802e+00
3.769448568671086e-02	3.435024e+01	4.776660e+00
3.788979818671086e-02	3.409871e+01	4.776111e+00
3.808511068671087e-02	3.366642e+01	4.775158e+00
3.828042318671087e-02	3.307074e+01	4.773829e+00
3.847573568671087e-02	3.235648e+01	4.772209e+00
3.867104818671088e-02	3.158985e+01	4.770441e+00
3.881568227626409e-02	3.102058e+01	4.769104e+00
3.895563632762886e-02	3.048089e+01	4.767813e+00
3.915094882762886e-02	2.974496e+01	4.766020e+00
3.934626132762886e-02	2.902713e+01	4.764234e+00
3.954157382762886e-02	2.832833e+01	4.762457e+00
3.973688632762887e-02	2.764804e+01	4.760688e+00
3.993219882762887e-02	2.698579e+01	4.758926e+00
4.012751132762887e-02	2.634107e+01	4.757171e+00
4.032282382762888e-02	2.571344e+01	4.755423e+00
4.051813632762888e-02	2.510244e+01	4.753681e+00
4.071344882762888e-02	2.450763e+01	4.751945e+00
4.090876132762888e-02	2.392858e+01	4.750213e+00
4.110407382762889e-02	2.336486e+01	4.748487e+00
4.129938632762889e-02	2.281608e+01	4.746765e+00
4.149469882762889e-02	2.228184e+01	4.745047e+00
4.169001132762890e-02	2.176175e+01	4.743332e+00
4.188532382762890e-02	2.125543e+01	4.741620e+00
4.208063632762890e-02	2.076253e+01	4.739911e+00
4.227594882762890e-02	2.028267e+01	4.738204e+00
4.247126132762891e-02	1.981553e+01	4.736499e+00
4.266657382762891e-02	1.936076e+01	4.734795e+00
4.286188632762891e-02	1.891803e+01	4.733091e+00
4.305719882762891e-02	1.848702e+01	4.731388e+00
4.325251132762892e-02	1.806743e+01	4.729685e+00
4.344782382762892e-02	1.765894e+01	4.727981e+00
4.364313632762892e-02	1.726127e+01	4.726276e+00
4.383844882762893e-02	1.687413e+01	4.724569e+00
4.403376132762893e-02	1.649723e+01	4.722860e+00
4.422907382762893e-02	1.613031e+01	4.721149e+00
4.442438632762893e-02	1.577310e+01	4.719435e+00
4.461969882762894e-02	1.542535e+01	4.717717e+00
4.481501132762894e-02	1.508679e+01	4.715994e+00
4.501032382762894e-02	1.475720e+01	4.714267e+00
4.520563632762895e-02	1.443632e+01	4.712534e+00
4.540094882762895e-02	1.412394e+01	4.710795e+00
4.559626132762895e-02	1.381981e+01	4.709050e+00
4.579157382762895e-02	1.352374e+01	4.707297e+00
4.598688632762896e-02	1.323549e+01	4.705537e+00
4.618219882762896e-02	1.295487e+01	4.703767e+00
4.637751132762896e-02	1.268166e+01	4.701989e+00
4.657282382762896e-02	1.241568e+01	4.700200e+00
4.676813632762897e-02	1.215673e+01	4.698400e+00
4.696344882762897e-02	1.190462e+01	4.696589e+00
4.715876132762897e-02	1.165918e+01	4.694765e+00
4.735407382762898e-02	1.142023e+01	4.692927e+00
4.754938632762898e-02	1.118758e+01	4.691075e+00
4.774469882762898e-02	1.096109e+01	4.689208e+00
4.794001132762898e-02	1.074057e+01	4.687324e+00
4.813532382762899e-02	1.052588e+01	4.685422e+00
4.833063632762899e-02	1.031686e+01	4.683502e+00
4.852594882762899e-02	1.011335e+01	4.681561e+00
4.872126132762900e-02	9.915215e+00	4.679599e+00
4.891657382762900e-02	9.722310e+00	4.677614e+00
4.911188632762900e-02	9.534492e+00	4.675605e+00
4.930719882762900e-02	9.351629e+00	4.673570e+00
4.950251132762901e-02	9.173588e+00	4.671506e+00
4.969782382762901e-02	9.000240e+00	4.669414e+00
4.989313632762901e-02	8.831461e+00	4.667289e+00
5.008844882762901e-02	8.667128e+00	4.665130e+00
5.028376132762902e-02	8.507123e+00	4.662935e+00
5.047907382762902e-02	8.356244e+00	4.660776e+00
5.067438632762902e-02	8.342299e+00	4.660557e+00
5.072764989624624e-02	8.550822e+00	4.663498e+00
5.075157185875843e-02	8.781096e+00	4.666596e+00
5.077333816612647e-02	9.048114e+00	4.669965e+00
5.079627845469090e-02	9.336798e+00	4.673350e+00
5.087414058567108e-02	1.032025e+01	4.683321e+00
5.111103317671728e-02	1.324487e+01	4.704937e+00
5.130634567671728e-02	1.557789e+01	4.718076e+00
5.150165817671729e-02	1.782563e+01	4.728448e+00
5.169697067671729e-02	1.997243e+01	4.736903e+00
5.189228317671729e-02	2.200666e+01	4.744019e+00
5.208759567671729e-02	2.391732e+01	4.750091e+00
5.228290817671730e-02	2.569408e+01	4.755307e+00
5.247822067671730e-02	2.732735e+01	4.759799e+00
5.267353317671730e-02	2.880831e+01	4.763656e+00
5.286884567671730e-02	3.012901e+01	4.766944e+00
5.306415817671731e-02	3.128235e+01	4.769711e+00
5.325947067671731e-02	3.226218e+01	4.771992e+00
5.345478317671731e-02	3.306330e+01	4.773812e+00
5.365009567671732e-02	3.368154e+01	4.775192e+00
5.384540817671732e-02	3.411379e+01	4.776144e+00
5.404072067671732e-02	3.435806e+01	4.776677e+00
5.423603317671732e-02	3.441359e+01	4.776798e+00
5.443134567671733e-02	3.428110e+01	4.776509e+00
5.462665817671733e-02	3.396362e+01	4.775814e+00
5.482197067671733e-02	3.346942e+01	4.774720e+00
5.501728317671734e-02	3.282433e+01	4.773273e+00
5.521259567671734e-02	3.208425e+01	4.771585e+00
5.540790817671734e-02	3.131507e+01	4.769795e+00
5.560322067671734e-02	3.055603e+01	4.767991e+00
5.579853317671735e-02	2.981672e+01	4.766196e+00
5.599384567671735e-02	2.909699e+01	4.764410e+00
5.618915817671735e-02	2.839634e+01	4.762632e+00
5.638447067671735e-02	2.771425e+01	4.760862e+00
5.657978317671736e-02	2.705024e+01	4.759099e+00
5.677509567671736e-02	2.640382e+01	4.757344e+00
5.697040817671736e-02	2.577452e+01	4.755595e+00
5.716572067671737e-02	2.516191e+01	4.753852e+00
5.736103317671737e-02	2.456552e+01	4.752115e+00
5.755634567671737e-02	2.398493e+01	4.750383e+00
5.775165817671737e-02	2.341972e+01	4.748657e+00
5.794697067671738e-02	2.286949e+01	4.746934e+00
5.814228317671738e-02	2.233383e+01	4.745215e+00
5.833759567671738e-02	2.181236e+01	4.743501e+00
5.853290817671739e-02	2.130471e+01	4.741788e+00
5.872822067671739e-02	2.081050e+01	4.740079e+00
5.892353317671739e-02	2.032937e+01	4.738372e+00
